!Keysight Technologies,N5224A,MY56042273,A.10.60.03
!Date: Wednesday, June 05, 2024 12:13:09
!Correction: S11(Full 1 Port(1)) 
!S1P File: Measurement: S11:
# Hz S  RI   R 50
8000000000 -0.10645378 0.07661362
8004000000 -0.10470384 0.077220254
8008000000 -0.10272216 0.078250773
8012000000 -0.10065366 0.079117194
8016000000 -0.098539256 0.080106631
8020000000 -0.096417613 0.080860786
8024000000 -0.094449185 0.081832446
8028000000 -0.092319429 0.082754374
8032000000 -0.090151519 0.083550133
8036000000 -0.08827246 0.08444906
8040000000 -0.086131766 0.085493423
8044000000 -0.084394939 0.086012691
8048000000 -0.082245201 0.086666726
8052000000 -0.080215022 0.087187916
8056000000 -0.078379378 0.087922879
8060000000 -0.076778561 0.088045426
8064000000 -0.074702658 0.088699073
8068000000 -0.07285805 0.088955075
8072000000 -0.070777409 0.089038745
8076000000 -0.068779908 0.089439251
8080000000 -0.066590749 0.089778028
8084000000 -0.064701915 0.089947812
8088000000 -0.062882796 0.090258621
8092000000 -0.060846943 0.090174429
8096000000 -0.058770832 0.090517551
8100000000 -0.056981951 0.090547591
8104000000 -0.055182707 0.09059824
8108000000 -0.053348996 0.090705141
8112000000 -0.051733132 0.090642601
8116000000 -0.049764127 0.090416983
8120000000 -0.047907889 0.090292871
8124000000 -0.04638572 0.08999119
8128000000 -0.044419955 0.089751095
8132000000 -0.042832453 0.089313835
8136000000 -0.041023433 0.088879406
8140000000 -0.039369427 0.088519223
8144000000 -0.037540585 0.088077955
8148000000 -0.035776865 0.08751221
8152000000 -0.033772957 0.087164119
8156000000 -0.032175906 0.086785614
8160000000 -0.030400332 0.086079106
8164000000 -0.028930627 0.085672289
8168000000 -0.027314 0.085075408
8172000000 -0.02570802 0.08445219
8176000000 -0.024191393 0.083992414
8180000000 -0.022673681 0.083242752
8184000000 -0.021598132 0.082582235
8188000000 -0.020146742 0.08167126
8192000000 -0.018756578 0.08062017
8196000000 -0.017385934 0.079985157
8200000000 -0.016003957 0.078718558
8204000000 -0.014502916 0.07784868
8208000000 -0.013229477 0.0768736
8212000000 -0.011595065 0.075846292
8216000000 -0.010254163 0.075034559
8220000000 -0.0087952726 0.074402452
8224000000 -0.0075949095 0.073178411
8228000000 -0.0061026709 0.072429381
8232000000 -0.0052441414 0.071540974
8236000000 -0.0041155335 0.070297271
8240000000 -0.0030198107 0.069503024
8244000000 -0.0022400208 0.068210721
8248000000 -0.0011322058 0.067164056
8252000000 -0.00014182704 0.065716796
8256000000 0.00068927574 0.064645402
8260000000 0.0018992652 0.063270904
8264000000 0.0027217399 0.061686952
8268000000 0.0039297114 0.060286619
8272000000 0.0051474157 0.059157338
8276000000 0.0063005071 0.057755817
8280000000 0.0069506532 0.056656208
8284000000 0.0079766773 0.055562351
8288000000 0.0089076711 0.054660115
8292000000 0.0096903602 0.05350367
8296000000 0.010516308 0.052150797
8300000000 0.011090104 0.050963141
8304000000 0.011492562 0.049725797
8308000000 0.01229264 0.048350479
8312000000 0.01289807 0.047165684
8316000000 0.013207243 0.045791175
8320000000 0.014070732 0.044516925
8324000000 0.014479458 0.042981952
8328000000 0.014881055 0.041473538
8332000000 0.015466699 0.040104292
8336000000 0.016032301 0.038880561
8340000000 0.016461277 0.037430387
8344000000 0.016963685 0.036148209
8348000000 0.017429026 0.034833081
8352000000 0.017954288 0.033459879
8356000000 0.018038679 0.032501198
8360000000 0.018294161 0.031170359
8364000000 0.018577717 0.03000051
8368000000 0.018658487 0.028595811
8372000000 0.018763181 0.027450763
8376000000 0.01887778 0.025934117
8380000000 0.018562008 0.024821347
8384000000 0.018828195 0.023317235
8388000000 0.018831499 0.021869967
8392000000 0.018895827 0.020169683
8396000000 0.018901218 0.018770773
8400000000 0.018767729 0.01707668
8404000000 0.018901888 0.016037624
8408000000 0.019107575 0.014528043
8412000000 0.019176539 0.013154886
8416000000 0.019276399 0.012019252
8420000000 0.01901336 0.01098278
8424000000 0.019144682 0.009494788
8428000000 0.018642129 0.0084700529
8432000000 0.0183897 0.0073406403
8436000000 0.018089572 0.0059944028
8440000000 0.017765926 0.0048490572
8444000000 0.017264729 0.0033760865
8448000000 0.016824024 0.0021355238
8452000000 0.016462488 0.00057113136
8456000000 0.016238468 -0.00066779449
8460000000 0.015762357 -0.00176974
8464000000 0.015720759 -0.0028476196
8468000000 0.015345691 -0.0041854414
8472000000 0.014566039 -0.0054377615
8476000000 0.014421751 -0.0065589291
8480000000 0.013841054 -0.0077619408
8484000000 0.013051962 -0.0086786132
8488000000 0.012444245 -0.0099746129
8492000000 0.011717893 -0.011120768
8496000000 0.011123653 -0.012242418
8500000000 0.010583386 -0.013777255
8504000000 0.0098196408 -0.01491979
8508000000 0.009152675 -0.016048027
8512000000 0.008418534 -0.017292839
8516000000 0.0078946678 -0.01853684
8520000000 0.0073070722 -0.019730857
8524000000 0.0066294391 -0.020757109
8528000000 0.006162629 -0.021718718
8532000000 0.0054092123 -0.022653366
8536000000 0.0050387192 -0.023707364
8540000000 0.0043094712 -0.024696637
8544000000 0.0033636936 -0.025598276
8548000000 0.0026793892 -0.026590949
8552000000 0.0019217146 -0.027273376
8556000000 0.0010057032 -0.027983818
8560000000 0.00022711714 -0.02890514
8564000000 -0.00076168351 -0.029852595
8568000000 -0.0018919549 -0.030699978
8572000000 -0.0030440923 -0.031652167
8576000000 -0.0039989408 -0.032375101
8580000000 -0.005009844 -0.033155587
8584000000 -0.0059911958 -0.034209058
8588000000 -0.0068924832 -0.035023376
8592000000 -0.007809076 -0.035765674
8596000000 -0.0087646805 -0.036685042
8600000000 -0.0095292432 -0.037085801
8604000000 -0.010624617 -0.03796361
8608000000 -0.011599412 -0.038370609
8612000000 -0.012934081 -0.038881723
8616000000 -0.014196892 -0.03919559
8620000000 -0.015363533 -0.039669957
8624000000 -0.016885633 -0.040219601
8628000000 -0.018455051 -0.040863272
8632000000 -0.019695675 -0.041421782
8636000000 -0.021192975 -0.042235166
8640000000 -0.022564897 -0.042922813
8644000000 -0.023809385 -0.043796167
8648000000 -0.025117712 -0.044455905
8652000000 -0.026308047 -0.045125894
8656000000 -0.027473627 -0.04579806
8660000000 -0.028455954 -0.046280891
8664000000 -0.029248774 -0.046709351
8668000000 -0.030722799 -0.047009617
8672000000 -0.031639315 -0.047220003
8676000000 -0.032938465 -0.047257401
8680000000 -0.034068972 -0.047312211
8684000000 -0.035389967 -0.047456503
8688000000 -0.037013374 -0.047428451
8692000000 -0.038373303 -0.047548842
8696000000 -0.039935652 -0.047471732
8700000000 -0.041486185 -0.047805604
8704000000 -0.042891119 -0.047826421
8708000000 -0.044544894 -0.047959637
8712000000 -0.045654349 -0.048072036
8716000000 -0.047123708 -0.048062555
8720000000 -0.048489556 -0.048181385
8724000000 -0.049878329 -0.048169091
8728000000 -0.05129052 -0.048320267
8732000000 -0.052533355 -0.048133224
8736000000 -0.053933352 -0.047838304
8740000000 -0.055271745 -0.047840394
8744000000 -0.056552324 -0.047252856
8748000000 -0.057884615 -0.047074582
8752000000 -0.059224963 -0.046988748
8756000000 -0.060639054 -0.046520408
8760000000 -0.062226813 -0.046251852
8764000000 -0.063328408 -0.045773994
8768000000 -0.064871013 -0.045790929
8772000000 -0.066380583 -0.045294762
8776000000 -0.067514464 -0.045056541
8780000000 -0.068756647 -0.045056652
8784000000 -0.069986001 -0.044537224
8788000000 -0.071113259 -0.0442615
8792000000 -0.072110064 -0.043834582
8796000000 -0.073190875 -0.043268744
8800000000 -0.074176356 -0.042762544
8804000000 -0.075097725 -0.041995004
8808000000 -0.076309077 -0.041205663
8812000000 -0.077092126 -0.040547948
8816000000 -0.078293748 -0.039637074
8820000000 -0.079266302 -0.038761385
8824000000 -0.080565348 -0.037874818
8828000000 -0.08150965 -0.037259392
8832000000 -0.082674079 -0.036303591
8836000000 -0.083858602 -0.035656575
8840000000 -0.084970236 -0.034899853
8844000000 -0.085545748 -0.033578608
8848000000 -0.086684667 -0.032926731
8852000000 -0.087547056 -0.032218803
8856000000 -0.088735119 -0.031218905
8860000000 -0.089424826 -0.030441355
8864000000 -0.090346321 -0.02960789
8868000000 -0.09124516 -0.028449023
8872000000 -0.092169449 -0.027429622
8876000000 -0.093059346 -0.026472341
8880000000 -0.093942866 -0.025698047
8884000000 -0.09475971 -0.024809159
8888000000 -0.095776662 -0.023949154
8892000000 -0.096662484 -0.022823216
8896000000 -0.097549945 -0.022227546
8900000000 -0.098011419 -0.021222703
8904000000 -0.098483346 -0.020438686
8908000000 -0.0989886 -0.019577021
8912000000 -0.099424683 -0.018662043
8916000000 -0.099985056 -0.017647015
8920000000 -0.10040596 -0.016546924
8924000000 -0.1010479 -0.015379694
8928000000 -0.10126098 -0.014053969
8932000000 -0.10175437 -0.01287932
8936000000 -0.10221162 -0.011836106
8940000000 -0.10276996 -0.010572286
8944000000 -0.10347334 -0.0091850907
8948000000 -0.10368875 -0.0082078539
8952000000 -0.104463 -0.0070998017
8956000000 -0.10495956 -0.0060465471
8960000000 -0.10573408 -0.0048723286
8964000000 -0.10630756 -0.0042166528
8968000000 -0.1064334 -0.0033419309
8972000000 -0.10668378 -0.0019331508
8976000000 -0.10701737 -0.0011573471
8980000000 -0.10729173 0.00010861721
8984000000 -0.1074933 0.0010142113
8988000000 -0.1076602 0.0020567465
8992000000 -0.10785721 0.0032397322
8996000000 -0.10810882 0.0045870184
9000000000 -0.10837871 0.0054953047
9004000000 -0.10881463 0.006933521
9008000000 -0.10881965 0.0082595311
9012000000 -0.10942551 0.0091582472
9016000000 -0.10981375 0.010418289
9020000000 -0.11003235 0.011151899
9024000000 -0.11031205 0.012100981
9028000000 -0.11047381 0.012857442
9032000000 -0.11032344 0.013647398
9036000000 -0.11032262 0.014364693
9040000000 -0.11023976 0.015381971
9044000000 -0.11015457 0.016108682
9048000000 -0.10979628 0.01713587
9052000000 -0.10973036 0.018170562
9056000000 -0.10928098 0.019460855
9060000000 -0.10905462 0.020603735
9064000000 -0.10904435 0.021806236
9068000000 -0.1088303 0.022988306
9072000000 -0.10871612 0.024385098
9076000000 -0.10883919 0.025571331
9080000000 -0.1088201 0.026706789
9084000000 -0.10875403 0.02748999
9088000000 -0.10898093 0.028575657
9092000000 -0.10901563 0.029481417
9096000000 -0.10880449 0.030278563
9100000000 -0.10882594 0.030895673
9104000000 -0.10883157 0.031870164
9108000000 -0.10848695 0.032782838
9112000000 -0.10801814 0.033361588
9116000000 -0.107443 0.034327053
9120000000 -0.1070278 0.035225373
9124000000 -0.10667484 0.035952356
9128000000 -0.10628528 0.037399214
9132000000 -0.1060143 0.038455248
9136000000 -0.10567475 0.03957979
9140000000 -0.10544699 0.040722702
9144000000 -0.10534278 0.041556057
9148000000 -0.10516535 0.042284124
9152000000 -0.10483223 0.043080702
9156000000 -0.10461621 0.044021793
9160000000 -0.10439973 0.044409856
9164000000 -0.10424423 0.045322068
9168000000 -0.10370895 0.04566557
9172000000 -0.10330247 0.046507798
9176000000 -0.10263906 0.046986826
9180000000 -0.10199323 0.047795992
9184000000 -0.1012207 0.048621166
9188000000 -0.10060274 0.049381431
9192000000 -0.099842593 0.049966529
9196000000 -0.099168837 0.051078215
9200000000 -0.098650806 0.052133307
9204000000 -0.098245688 0.052985478
9208000000 -0.097947381 0.053858679
9212000000 -0.097443447 0.054933239
9216000000 -0.097158015 0.055508848
9220000000 -0.096759476 0.056480359
9224000000 -0.096156292 0.057161853
9228000000 -0.095970601 0.057763178
9232000000 -0.095501892 0.058185332
9236000000 -0.094953924 0.058797825
9240000000 -0.094478346 0.059241276
9244000000 -0.093849584 0.059794009
9248000000 -0.093258314 0.060157772
9252000000 -0.092311352 0.06063788
9256000000 -0.091843776 0.061433028
9260000000 -0.091134988 0.062016919
9264000000 -0.090699092 0.062816769
9268000000 -0.089790277 0.063385472
9272000000 -0.089240894 0.064021878
9276000000 -0.088722579 0.064477518
9280000000 -0.088308014 0.065064535
9284000000 -0.08745569 0.065453462
9288000000 -0.086957559 0.065992266
9292000000 -0.086533688 0.066079803
9296000000 -0.085589163 0.066446468
9300000000 -0.084974304 0.066828191
9304000000 -0.084223934 0.067097664
9308000000 -0.083522379 0.0674197
9312000000 -0.082577765 0.06798625
9316000000 -0.081716806 0.068493478
9320000000 -0.080825791 0.068963833
9324000000 -0.080174707 0.069365397
9328000000 -0.079288542 0.070162781
9332000000 -0.078817509 0.070618145
9336000000 -0.078229718 0.07116174
9340000000 -0.077458248 0.07164757
9344000000 -0.077158593 0.072038583
9348000000 -0.076588027 0.072041176
9352000000 -0.075887732 0.072287045
9356000000 -0.075470723 0.072792612
9360000000 -0.07472454 0.072880052
9364000000 -0.07410042 0.07313332
9368000000 -0.073177673 0.073245443
9372000000 -0.072549984 0.073667437
9376000000 -0.071861871 0.073803373
9380000000 -0.07093586 0.07396128
9384000000 -0.070293941 0.074471317
9388000000 -0.069359407 0.074783862
9392000000 -0.068964809 0.074792527
9396000000 -0.068396658 0.07507138
9400000000 -0.067806624 0.075287014
9404000000 -0.066725701 0.075615838
9408000000 -0.066772498 0.075681649
9412000000 -0.066285178 0.075868987
9416000000 -0.065741211 0.075667575
9420000000 -0.064933918 0.075681366
9424000000 -0.064536989 0.075502962
9428000000 -0.063993305 0.075397402
9432000000 -0.062949121 0.075496905
9436000000 -0.062157214 0.07539887
9440000000 -0.061293695 0.075253554
9444000000 -0.060646258 0.075440608
9448000000 -0.059543286 0.07554765
9452000000 -0.0589028 0.075439341
9456000000 -0.058202598 0.075755954
9460000000 -0.057892609 0.076159008
9464000000 -0.05704445 0.076219641
9468000000 -0.056767821 0.076130219
9472000000 -0.056005102 0.076458298
9476000000 -0.056044903 0.076287583
9480000000 -0.05548422 0.076299891
9484000000 -0.055434104 0.075920686
9488000000 -0.0550837 0.075627863
9492000000 -0.054422699 0.075246811
9496000000 -0.053892337 0.0748339
9500000000 -0.053271472 0.074616969
9504000000 -0.052486409 0.074232422
9508000000 -0.05180826 0.074160337
9512000000 -0.051111873 0.073943995
9516000000 -0.050575513 0.074033141
9520000000 -0.049791276 0.073935762
9524000000 -0.049169686 0.073660351
9528000000 -0.04863169 0.073385872
9532000000 -0.048485518 0.0736361
9536000000 -0.047977436 0.073702231
9540000000 -0.047911812 0.073243834
9544000000 -0.047291998 0.073099606
9548000000 -0.047179345 0.072453953
9552000000 -0.046593346 0.072030373
9556000000 -0.046351831 0.071412742
9560000000 -0.04573207 0.0713557
9564000000 -0.04534018 0.070850901
9568000000 -0.044567794 0.070573121
9572000000 -0.044136427 0.070425943
9576000000 -0.043489549 0.070130773
9580000000 -0.042831723 0.069698252
9584000000 -0.042598229 0.069707125
9588000000 -0.042068623 0.069645301
9592000000 -0.041711628 0.069313265
9596000000 -0.04133416 0.069191799
9600000000 -0.041143194 0.069186941
9604000000 -0.041208304 0.068790242
9608000000 -0.040862788 0.068717383
9612000000 -0.040595207 0.068488859
9616000000 -0.040387273 0.0680582
9620000000 -0.0402679 0.067421198
9624000000 -0.039956715 0.067041382
9628000000 -0.039939661 0.066621982
9632000000 -0.039556816 0.066055343
9636000000 -0.03921409 0.065597005
9640000000 -0.039063253 0.065285668
9644000000 -0.03855297 0.065082185
9648000000 -0.037999447 0.064678773
9652000000 -0.037776664 0.064450391
9656000000 -0.037593987 0.064464912
9660000000 -0.037468955 0.064234048
9664000000 -0.037598915 0.063964486
9668000000 -0.037250474 0.063745283
9672000000 -0.037138168 0.063239545
9676000000 -0.037766334 0.063162997
9680000000 -0.037740387 0.06256637
9684000000 -0.03721175 0.062407363
9688000000 -0.037140619 0.062086377
9692000000 -0.037317298 0.061414812
9696000000 -0.036957905 0.061172407
9700000000 -0.036915138 0.060754035
9704000000 -0.036414374 0.060619064
9708000000 -0.036618639 0.060376801
9712000000 -0.036236327 0.059963379
9716000000 -0.036207668 0.059758268
9720000000 -0.036121719 0.060034949
9724000000 -0.036204077 0.059532419
9728000000 -0.036523849 0.059146758
9732000000 -0.036933824 0.059062663
9736000000 -0.036774497 0.058878019
9740000000 -0.036912799 0.058653183
9744000000 -0.037190996 0.058175549
9748000000 -0.037249062 0.057969838
9752000000 -0.037077829 0.057446271
9756000000 -0.037159268 0.057051145
9760000000 -0.037387542 0.056639563
9764000000 -0.037284944 0.056131836
9768000000 -0.036961172 0.056369171
9772000000 -0.036870334 0.056225076
9776000000 -0.036881447 0.056062471
9780000000 -0.037294034 0.055759996
9784000000 -0.03756424 0.05604662
9788000000 -0.037890065 0.055976976
9792000000 -0.037847303 0.056166049
9796000000 -0.038600318 0.05587431
9800000000 -0.038715672 0.055797264
9804000000 -0.038884994 0.055661365
9808000000 -0.039290596 0.055414021
9812000000 -0.039860383 0.054983698
9816000000 -0.040281579 0.054452036
9820000000 -0.040356319 0.054270018
9824000000 -0.04065387 0.053952362
9828000000 -0.040508766 0.053474221
9832000000 -0.040496383 0.053462859
9836000000 -0.040680517 0.053280745
9840000000 -0.040571958 0.053365789
9844000000 -0.040609885 0.053150281
9848000000 -0.040887039 0.053368784
9852000000 -0.040563323 0.053515967
9856000000 -0.040918 0.053525399
9860000000 -0.041419391 0.053697851
9864000000 -0.041750979 0.053872619
9868000000 -0.042304505 0.054040056
9872000000 -0.042728011 0.054011714
9876000000 -0.043501016 0.053935476
9880000000 -0.043685921 0.053747192
9884000000 -0.043887667 0.053441979
9888000000 -0.044089623 0.053280775
9892000000 -0.044151966 0.053496756
9896000000 -0.044555414 0.053261038
9900000000 -0.044474527 0.052923802
9904000000 -0.044816416 0.053233828
9908000000 -0.044614267 0.053347319
9912000000 -0.044866141 0.053577654
9916000000 -0.045109633 0.053865343
9920000000 -0.045564845 0.054089703
9924000000 -0.045936506 0.054284286
9928000000 -0.046601608 0.054687914
9932000000 -0.046796046 0.05473654
9936000000 -0.047237754 0.054945905
9940000000 -0.047769509 0.054997668
9944000000 -0.047933675 0.055029992
9948000000 -0.048357978 0.054912988
9952000000 -0.048608061 0.05499744
9956000000 -0.048713826 0.054947734
9960000000 -0.048923362 0.05492191
9964000000 -0.048863068 0.055305235
9968000000 -0.049108274 0.055243284
9972000000 -0.049026415 0.055955958
9976000000 -0.049199786 0.056448307
9980000000 -0.04907684 0.056361504
9984000000 -0.049487576 0.056885865
9988000000 -0.050101623 0.057408232
9992000000 -0.050198663 0.057723869
9996000000 -0.050686181 0.057717036
10000000000 -0.051121041 0.058181804
10004000000 -0.051133607 0.058521066
10008000000 -0.051679466 0.058518369
10012000000 -0.051794402 0.05888905
10016000000 -0.052247353 0.059037104
10020000000 -0.052453492 0.059289604
10024000000 -0.052354798 0.059601601
10028000000 -0.05232171 0.05963853
10032000000 -0.052398153 0.060049683
10036000000 -0.052511934 0.06039343
10040000000 -0.052483842 0.060898103
10044000000 -0.05272612 0.061399862
10048000000 -0.05285655 0.061904352
10052000000 -0.052941497 0.062651329
10056000000 -0.053249124 0.063155279
10060000000 -0.053546522 0.063432589
10064000000 -0.053722236 0.06378828
10068000000 -0.054174118 0.064161479
10072000000 -0.054465588 0.064287901
10076000000 -0.054831732 0.064409964
10080000000 -0.054639954 0.064586028
10084000000 -0.05440326 0.065096818
10088000000 -0.05468744 0.064813681
10092000000 -0.0544829 0.065323889
10096000000 -0.054312266 0.065831423
10100000000 -0.054185208 0.066168144
10104000000 -0.053601552 0.067273453
10108000000 -0.053458203 0.067515917
10112000000 -0.053541537 0.068465181
10116000000 -0.053788424 0.068831816
10120000000 -0.053867955 0.069561645
10124000000 -0.054134201 0.070017919
10128000000 -0.054280337 0.070747837
10132000000 -0.054197475 0.070981972
10136000000 -0.05425477 0.071637861
10140000000 -0.054489821 0.072133437
10144000000 -0.054276686 0.071832761
10148000000 -0.054128565 0.072445475
10152000000 -0.053957779 0.072754689
10156000000 -0.05359403 0.073143594
10160000000 -0.053209025 0.073638253
10164000000 -0.053202726 0.074537329
10168000000 -0.052884951 0.075090714
10172000000 -0.052640423 0.076145597
10176000000 -0.052430388 0.076672055
10180000000 -0.052518852 0.077307574
10184000000 -0.052572198 0.078368768
10188000000 -0.052636564 0.078710265
10192000000 -0.053100854 0.079470508
10196000000 -0.053215124 0.079691857
10200000000 -0.05324709 0.080167763
