!Keysight Technologies,N5224A,MY56042273,A.10.60.03
!Date: Wednesday, June 05, 2024 12:08:26
!Correction: S11(Full 1 Port(1)) 
!S1P File: Measurement: S11:
# Hz S  RI   R 50
8000000000 0.30743885 -0.7680065
8004000000 0.28539649 -0.77649146
8008000000 0.2636402 -0.78460264
8012000000 0.24108708 -0.7916832
8016000000 0.21866338 -0.79843467
8020000000 0.19734102 -0.80474484
8024000000 0.1738624 -0.80979395
8028000000 0.15120412 -0.81461877
8032000000 0.1288999 -0.81881523
8036000000 0.10656651 -0.82219374
8040000000 0.083608396 -0.82479632
8044000000 0.061139829 -0.82691216
8048000000 0.0381715 -0.82910138
8052000000 0.016000358 -0.83024859
8056000000 -0.006653164 -0.83053559
8060000000 -0.029610693 -0.83050597
8064000000 -0.05219543 -0.8297497
8068000000 -0.074564219 -0.82900411
8072000000 -0.097574182 -0.82711208
8076000000 -0.11934222 -0.82440674
8080000000 -0.14165227 -0.82155585
8084000000 -0.16355731 -0.81843573
8088000000 -0.18561734 -0.81387722
8092000000 -0.20720944 -0.81000799
8096000000 -0.22851698 -0.80432701
8100000000 -0.24987154 -0.79845083
8104000000 -0.27113593 -0.79210198
8108000000 -0.29228234 -0.78496486
8112000000 -0.31306565 -0.77813643
8116000000 -0.33380973 -0.77006471
8120000000 -0.35425234 -0.76162821
8124000000 -0.37438184 -0.75339019
8128000000 -0.3938145 -0.74348235
8132000000 -0.41345868 -0.73435599
8136000000 -0.43281993 -0.72342491
8140000000 -0.45271432 -0.7131477
8144000000 -0.47055352 -0.70274711
8148000000 -0.48874432 -0.6910798
8152000000 -0.50612795 -0.67906111
8156000000 -0.52494305 -0.66547191
8160000000 -0.54205537 -0.65342081
8164000000 -0.55952245 -0.63891828
8168000000 -0.57595897 -0.62585163
8172000000 -0.59242064 -0.61148882
8176000000 -0.60856164 -0.59712511
8180000000 -0.62450469 -0.58229274
8184000000 -0.64077157 -0.56695348
8188000000 -0.65477651 -0.55130357
8192000000 -0.66975635 -0.53566152
8196000000 -0.68371958 -0.51910317
8200000000 -0.69750267 -0.50274003
8204000000 -0.71032733 -0.48585534
8208000000 -0.72334868 -0.46879083
8212000000 -0.73539323 -0.45104092
8216000000 -0.74705619 -0.43316153
8220000000 -0.75769156 -0.41455084
8224000000 -0.76906043 -0.39567
8228000000 -0.77934927 -0.37663504
8232000000 -0.78887552 -0.35649684
8236000000 -0.79951233 -0.33722451
8240000000 -0.80790108 -0.31785977
8244000000 -0.81728071 -0.29767781
8248000000 -0.82548285 -0.27764028
8252000000 -0.83300501 -0.25825524
8256000000 -0.8401643 -0.23717543
8260000000 -0.84662861 -0.21651684
8264000000 -0.85321802 -0.19644453
8268000000 -0.85890937 -0.17578614
8272000000 -0.86347872 -0.15478493
8276000000 -0.86779159 -0.13393779
8280000000 -0.87187713 -0.11171775
8284000000 -0.87549937 -0.090580791
8288000000 -0.87737036 -0.068890102
8292000000 -0.88058054 -0.047041468
8296000000 -0.88199049 -0.025133025
8300000000 -0.88360429 -0.0030231194
8304000000 -0.88470352 0.018931217
8308000000 -0.88520032 0.04027592
8312000000 -0.88458931 0.062912278
8316000000 -0.88416028 0.085093424
8320000000 -0.88250524 0.10561077
8324000000 -0.88083524 0.12804207
8328000000 -0.8781653 0.14991315
8332000000 -0.87523019 0.17195112
8336000000 -0.87107223 0.1929993
8340000000 -0.8671779 0.2152658
8344000000 -0.86207885 0.23640268
8348000000 -0.85671449 0.25775921
8352000000 -0.85035139 0.27951422
8356000000 -0.84370309 0.3007544
8360000000 -0.83643538 0.32177651
8364000000 -0.82920182 0.34330574
8368000000 -0.82052422 0.36352652
8372000000 -0.81233186 0.38466731
8376000000 -0.8036477 0.40519741
8380000000 -0.79361862 0.42537731
8384000000 -0.78350377 0.44538438
8388000000 -0.77286512 0.46456301
8392000000 -0.76157087 0.48403698
8396000000 -0.74988508 0.50336564
8400000000 -0.73721105 0.52237397
8404000000 -0.7244612 0.54076833
8408000000 -0.71085882 0.55859363
8412000000 -0.69698989 0.57716841
8416000000 -0.68257362 0.59466779
8420000000 -0.66761231 0.61224747
8424000000 -0.65214878 0.62920612
8428000000 -0.63609046 0.64613181
8432000000 -0.62017906 0.66197336
8436000000 -0.60334498 0.67814046
8440000000 -0.58648252 0.69331902
8444000000 -0.56890297 0.70756215
8448000000 -0.55060774 0.72187483
8452000000 -0.53256845 0.73630047
8456000000 -0.51379818 0.74973089
8460000000 -0.49436131 0.76262724
8464000000 -0.47476128 0.77489448
8468000000 -0.45469525 0.78678942
8472000000 -0.43436086 0.79847759
8476000000 -0.41325578 0.80919635
8480000000 -0.39286172 0.82018346
8484000000 -0.37157908 0.82982641
8488000000 -0.3500759 0.83961213
8492000000 -0.32779768 0.84866554
8496000000 -0.30581746 0.85653406
8500000000 -0.28433108 0.86426467
8504000000 -0.26162085 0.871328
8508000000 -0.23854591 0.87811339
8512000000 -0.21540904 0.88304037
8516000000 -0.19217773 0.88828194
8520000000 -0.16841778 0.89292991
8524000000 -0.14499468 0.89659554
8528000000 -0.12185366 0.89981139
8532000000 -0.097085714 0.90262777
8536000000 -0.073743232 0.90434122
8540000000 -0.049763579 0.90582615
8544000000 -0.025259567 0.90676045
8548000000 -0.0015804409 0.90714574
8552000000 0.022868123 0.90614367
8556000000 0.047028568 0.90479851
8560000000 0.071155414 0.90350997
8564000000 0.095157489 0.90029168
8568000000 0.11894929 0.89721137
8572000000 0.14333548 0.89340276
8576000000 0.16688929 0.88796461
8580000000 0.19036035 0.88308376
8584000000 0.21454635 0.87622696
8588000000 0.23801076 0.87054259
8592000000 0.26127061 0.86210996
8596000000 0.28462175 0.85451031
8600000000 0.30784386 0.84615606
8604000000 0.33067307 0.8369987
8608000000 0.3531701 0.82664925
8612000000 0.37555027 0.816073
8616000000 0.39685988 0.80501407
8620000000 0.41817415 0.79342622
8624000000 0.4398101 0.78101957
8628000000 0.46035054 0.76763666
8632000000 0.48049888 0.75390798
8636000000 0.50052774 0.73997158
8640000000 0.52027702 0.72511744
8644000000 0.53970236 0.70924163
8648000000 0.55837899 0.69288784
8652000000 0.57699686 0.67633003
8656000000 0.59524554 0.65892625
8660000000 0.61234581 0.64155424
8664000000 0.6301012 0.623043
8668000000 0.64667892 0.60496771
8672000000 0.66269469 0.58573008
8676000000 0.67835331 0.56634921
8680000000 0.69326615 0.54705048
8684000000 0.7075665 0.52686131
8688000000 0.72071147 0.50608557
8692000000 0.7341975 0.48518902
8696000000 0.74627173 0.46382275
8700000000 0.75790381 0.4420647
8704000000 0.76938587 0.41980597
8708000000 0.77947831 0.39712998
8712000000 0.789891 0.37431371
8716000000 0.79865563 0.35157964
8720000000 0.80745423 0.32810494
8724000000 0.81499165 0.30496922
8728000000 0.82266772 0.28103921
8732000000 0.82939982 0.25732854
8736000000 0.83547157 0.23369099
8740000000 0.8406285 0.20928451
8744000000 0.84523314 0.18525213
8748000000 0.84886259 0.16118787
8752000000 0.85167223 0.13669603
8756000000 0.85417533 0.11228441
8760000000 0.85565096 0.087638304
8764000000 0.85728425 0.063240916
8768000000 0.85740513 0.038510006
8772000000 0.85690469 0.014272691
8776000000 0.8554635 -0.010296488
8780000000 0.85463226 -0.034579117
8784000000 0.85154378 -0.059531439
8788000000 0.84864926 -0.083194353
8792000000 0.84495568 -0.10708229
8796000000 0.84051454 -0.1310125
8800000000 0.83584559 -0.15403324
8804000000 0.83022606 -0.17735915
8808000000 0.8231371 -0.20022212
8812000000 0.81685495 -0.22314397
8816000000 0.80907285 -0.24612959
8820000000 0.80123299 -0.2684997
8824000000 0.79228693 -0.28980085
8828000000 0.78305727 -0.31223643
8832000000 0.77256548 -0.33358207
8836000000 0.76155454 -0.35468894
8840000000 0.7509926 -0.37581226
8844000000 0.73929352 -0.39580122
8848000000 0.72733349 -0.41607234
8852000000 0.71470684 -0.43569085
8856000000 0.70156491 -0.45509237
8860000000 0.68815041 -0.47397843
8864000000 0.67406917 -0.49241212
8868000000 0.65964836 -0.51024318
8872000000 0.64471281 -0.52773219
8876000000 0.62928975 -0.54454118
8880000000 0.61369967 -0.56129593
8884000000 0.5972113 -0.57766855
8888000000 0.58063418 -0.59312016
8892000000 0.56412196 -0.60819048
8896000000 0.54656738 -0.62321806
8900000000 0.52903616 -0.63757008
8904000000 0.51128173 -0.6513226
8908000000 0.49309397 -0.66486669
8912000000 0.47500101 -0.67753291
8916000000 0.45659667 -0.68979603
8920000000 0.4378067 -0.70100093
8924000000 0.41859153 -0.71178454
8928000000 0.399809 -0.72247452
8932000000 0.37999743 -0.73227817
8936000000 0.36006549 -0.74150318
8940000000 0.34013858 -0.75071794
8944000000 0.31989115 -0.75865448
8948000000 0.29951909 -0.76649421
8952000000 0.27901906 -0.77382672
8956000000 0.25834823 -0.78027135
8960000000 0.2375534 -0.7867744
8964000000 0.21658948 -0.79245567
8968000000 0.19598089 -0.79780304
8972000000 0.17574255 -0.80247277
8976000000 0.15462679 -0.80686605
8980000000 0.13453119 -0.8105225
8984000000 0.11377617 -0.81341094
8988000000 0.09260232 -0.81575531
8992000000 0.071594261 -0.81777656
8996000000 0.050860897 -0.81932116
9000000000 0.030305751 -0.8200199
9004000000 0.0095768608 -0.82074249
9008000000 -0.011384198 -0.82059652
9012000000 -0.031912211 -0.81969666
9016000000 -0.052408058 -0.81893367
9020000000 -0.072858565 -0.81742972
9024000000 -0.093122572 -0.81535673
9028000000 -0.11351813 -0.81308055
9032000000 -0.13381864 -0.81061828
9036000000 -0.15369043 -0.80736887
9040000000 -0.17285351 -0.80348253
9044000000 -0.1928394 -0.79955047
9048000000 -0.21150887 -0.79507631
9052000000 -0.2309549 -0.78960407
9056000000 -0.24984351 -0.78441405
9060000000 -0.26897776 -0.77800584
9064000000 -0.28735295 -0.77121282
9068000000 -0.30619794 -0.76434529
9072000000 -0.32455555 -0.75675172
9076000000 -0.34270614 -0.74910432
9080000000 -0.36080351 -0.74099427
9084000000 -0.37836957 -0.73250967
9088000000 -0.39589971 -0.72386956
9092000000 -0.4132317 -0.71477151
9096000000 -0.43005979 -0.70571566
9100000000 -0.44665903 -0.69601816
9104000000 -0.46277025 -0.68640661
9108000000 -0.47927833 -0.67592549
9112000000 -0.49468276 -0.66492754
9116000000 -0.50962704 -0.65420598
9120000000 -0.5250594 -0.64272451
9124000000 -0.53990453 -0.63079786
9128000000 -0.55456954 -0.6185286
9132000000 -0.56928957 -0.60637468
9136000000 -0.58330357 -0.59362447
9140000000 -0.59729272 -0.5801416
9144000000 -0.6105758 -0.56726259
9148000000 -0.62370932 -0.55380112
9152000000 -0.63665164 -0.53998965
9156000000 -0.6488961 -0.52602023
9160000000 -0.66112792 -0.51184946
9164000000 -0.67288846 -0.49782792
9168000000 -0.68434256 -0.48333341
9172000000 -0.69541097 -0.46865249
9176000000 -0.70610881 -0.45349824
9180000000 -0.71616298 -0.43856087
9184000000 -0.72634155 -0.42293337
9188000000 -0.73591334 -0.40697086
9192000000 -0.7450788 -0.39124709
9196000000 -0.75421768 -0.37471616
9200000000 -0.76248062 -0.35794592
9204000000 -0.77121103 -0.3419145
9208000000 -0.77922517 -0.32502773
9212000000 -0.78674757 -0.30809695
9216000000 -0.79391378 -0.29160306
9220000000 -0.8008697 -0.27478719
9224000000 -0.80737406 -0.25806513
9228000000 -0.81392336 -0.24062075
9232000000 -0.82005221 -0.2237379
9236000000 -0.82526273 -0.20629969
9240000000 -0.83008498 -0.18885429
9244000000 -0.83482003 -0.17118637
9248000000 -0.83880764 -0.15388268
9252000000 -0.84233147 -0.136226
9256000000 -0.84586281 -0.11780258
9260000000 -0.84958005 -0.10014281
9264000000 -0.85201144 -0.081767425
9268000000 -0.85444009 -0.063518383
9272000000 -0.85639495 -0.045645937
9276000000 -0.85822231 -0.027316155
9280000000 -0.85990405 -0.0094604809
9284000000 -0.86030346 0.008208896
9288000000 -0.86101353 0.026282812
9292000000 -0.86131555 0.044380665
9296000000 -0.86133337 0.061827976
9300000000 -0.86081272 0.079909958
9304000000 -0.8592304 0.098057382
9308000000 -0.85790497 0.11588201
9312000000 -0.8557865 0.13459769
9316000000 -0.85351413 0.15248066
9320000000 -0.85002053 0.17133568
9324000000 -0.84771872 0.18900611
9328000000 -0.84440619 0.20697629
9332000000 -0.84078884 0.22500427
9336000000 -0.8372618 0.2434535
9340000000 -0.83279395 0.26074842
9344000000 -0.82855886 0.27836257
9348000000 -0.82385379 0.2958996
9352000000 -0.81766552 0.3137199
9356000000 -0.81271225 0.33080384
9360000000 -0.80716527 0.34766912
9364000000 -0.8002215 0.36402467
9368000000 -0.79300338 0.38134119
9372000000 -0.78583622 0.39833829
9376000000 -0.77753878 0.41458514
9380000000 -0.76959246 0.43162462
9384000000 -0.76100755 0.44856116
9388000000 -0.75197428 0.46515101
9392000000 -0.74278671 0.48120597
9396000000 -0.73331213 0.49705631
9400000000 -0.72378486 0.51292819
9404000000 -0.71324265 0.52908874
9408000000 -0.70286918 0.54403108
9412000000 -0.6923334 0.55976927
9416000000 -0.68149304 0.57389987
9420000000 -0.66998374 0.58886939
9424000000 -0.65818137 0.60282928
9428000000 -0.64657825 0.61716825
9432000000 -0.63341999 0.63144523
9436000000 -0.62002265 0.64569944
9440000000 -0.60745889 0.65848297
9444000000 -0.5935353 0.67201865
9448000000 -0.57828218 0.68530518
9452000000 -0.56434554 0.69762897
9456000000 -0.54912096 0.71067101
9460000000 -0.5351615 0.7231912
9464000000 -0.51931435 0.7350629
9468000000 -0.50495809 0.74679458
9472000000 -0.48909435 0.75929511
9476000000 -0.47357759 0.76931971
9480000000 -0.4571605 0.78032184
9484000000 -0.44142395 0.7899161
9488000000 -0.42507949 0.80009013
9492000000 -0.40758267 0.80951279
9496000000 -0.38995582 0.818645
9500000000 -0.37259123 0.82737017
9504000000 -0.35461083 0.83536476
9508000000 -0.33713198 0.84400153
9512000000 -0.31826848 0.85132581
9516000000 -0.29903209 0.85944706
9520000000 -0.28011388 0.86613667
9524000000 -0.26059419 0.87267864
9528000000 -0.24179721 0.8788684
9532000000 -0.22296667 0.88405114
9536000000 -0.2034286 0.89024448
9540000000 -0.18409172 0.8952651
9544000000 -0.16388945 0.89920634
9548000000 -0.14400022 0.90321398
9552000000 -0.12343639 0.9066782
9556000000 -0.10381658 0.90987867
9560000000 -0.082545377 0.91339308
9564000000 -0.062078234 0.91457891
9568000000 -0.040982097 0.91613036
9572000000 -0.01926708 0.91772002
9576000000 0.0009123669 0.91784334
9580000000 0.022818623 0.91801232
9584000000 0.04311645 0.91842341
9588000000 0.064039268 0.91723162
9592000000 0.084977612 0.91611838
9596000000 0.10608566 0.91399318
9600000000 0.12750323 0.9120205
9604000000 0.14820597 0.90871584
9608000000 0.16983463 0.90583956
9612000000 0.19115518 0.90162778
9616000000 0.21287158 0.897021
9620000000 0.23337105 0.89172435
9624000000 0.25437316 0.88590413
9628000000 0.2755883 0.88021141
9632000000 0.29647365 0.87238854
9636000000 0.31795096 0.86572814
9640000000 0.33877206 0.85795158
9644000000 0.35957551 0.84938234
9648000000 0.38007435 0.84069067
9652000000 0.40030605 0.83091563
9656000000 0.42112747 0.82101512
9660000000 0.43989319 0.81080425
9664000000 0.45963457 0.80054951
9668000000 0.47885141 0.78815931
9672000000 0.49869889 0.77543336
9676000000 0.5176031 0.76353598
9680000000 0.53582633 0.7505219
9684000000 0.55473262 0.73554724
9688000000 0.57293087 0.72178841
9692000000 0.59136683 0.70616001
9696000000 0.60875475 0.69087267
9700000000 0.62595648 0.67546511
9704000000 0.64270288 0.65890402
9708000000 0.65946317 0.64237136
9712000000 0.67521816 0.62490076
9716000000 0.69054204 0.60738808
9720000000 0.70617688 0.5891757
9724000000 0.72065496 0.57040232
9728000000 0.73480588 0.55205053
9732000000 0.74794459 0.53343868
9736000000 0.76166391 0.51197541
9740000000 0.7737239 0.4915829
9744000000 0.7860989 0.470806
9748000000 0.7975691 0.44973367
9752000000 0.80828899 0.42743668
9756000000 0.81969923 0.405965
9760000000 0.8294208 0.38349128
9764000000 0.83907688 0.36102039
9768000000 0.84798938 0.33799329
9772000000 0.85650235 0.31522265
9776000000 0.86377484 0.29243949
9780000000 0.87093437 0.26910326
9784000000 0.8778193 0.24536942
9788000000 0.88324767 0.22145618
9792000000 0.88819999 0.19739494
9796000000 0.89174336 0.17355445
9800000000 0.89528072 0.14858747
9804000000 0.89804286 0.12347854
9808000000 0.89953429 0.098945044
9812000000 0.90155756 0.073636644
9816000000 0.901999 0.04934454
9820000000 0.90255779 0.023557005
9824000000 0.90180784 -0.0021893419
9828000000 0.90020561 -0.027054787
9832000000 0.89860249 -0.052379083
9836000000 0.89617848 -0.076522976
9840000000 0.89258158 -0.10181473
9844000000 0.88892496 -0.12675852
9848000000 0.88402414 -0.15071093
9852000000 0.87793136 -0.1749547
9856000000 0.87131965 -0.19944729
9860000000 0.86487931 -0.22269003
9864000000 0.85674191 -0.24776152
9868000000 0.84823769 -0.27168801
9872000000 0.83879697 -0.29478291
9876000000 0.82857555 -0.31847256
9880000000 0.81868178 -0.34128845
9884000000 0.80685061 -0.36435372
9888000000 0.79485738 -0.3869355
9892000000 0.78249067 -0.40875354
9896000000 0.7703374 -0.42996818
9900000000 0.75640899 -0.4510965
9904000000 0.74309194 -0.47241926
9908000000 0.72885954 -0.49228081
9912000000 0.71364081 -0.5124101
9916000000 0.69748819 -0.5318203
9920000000 0.68111551 -0.55012065
9924000000 0.6641435 -0.56941903
9928000000 0.64647073 -0.58719212
9932000000 0.6288414 -0.60443717
9936000000 0.60987544 -0.62190896
9940000000 0.590868 -0.6380952
9944000000 0.57254171 -0.65430963
9948000000 0.55255735 -0.6698364
9952000000 0.53192979 -0.68496484
9956000000 0.51268142 -0.69979668
9960000000 0.49219158 -0.71267474
9964000000 0.47148496 -0.72527891
9968000000 0.45048007 -0.73795319
9972000000 0.42843586 -0.74901676
9976000000 0.40665621 -0.76015961
9980000000 0.3848432 -0.77036464
9984000000 0.36173543 -0.77997702
9988000000 0.33925289 -0.78941023
9992000000 0.31654888 -0.7975232
9996000000 0.29389215 -0.80550754
10000000000 0.27023977 -0.81210679
10004000000 0.24672897 -0.81915474
10008000000 0.22321923 -0.82498956
10012000000 0.199451 -0.83092809
10016000000 0.17605737 -0.83536053
10020000000 0.15209612 -0.84020132
10024000000 0.12971517 -0.84312993
10028000000 0.10604742 -0.84598589
10032000000 0.083056718 -0.84739536
10036000000 0.059594497 -0.84924364
10040000000 0.036296051 -0.84962553
10044000000 0.012439528 -0.84954536
10048000000 -0.010787141 -0.8488571
10052000000 -0.034159772 -0.84699136
10056000000 -0.057439759 -0.84521073
10060000000 -0.08026921 -0.84272701
10064000000 -0.10359839 -0.8394984
10068000000 -0.12664826 -0.83574319
10072000000 -0.14919811 -0.83159089
10076000000 -0.17132533 -0.82740247
10080000000 -0.19376883 -0.82295817
10084000000 -0.21570423 -0.81652176
10088000000 -0.23750331 -0.81096923
10092000000 -0.25852695 -0.80412334
10096000000 -0.27972856 -0.79662967
10100000000 -0.30009973 -0.78916878
10104000000 -0.32051289 -0.7792874
10108000000 -0.340754 -0.7712056
10112000000 -0.36066523 -0.76116329
10116000000 -0.37989196 -0.75090754
10120000000 -0.39988157 -0.74020821
10124000000 -0.41876847 -0.7294029
10128000000 -0.43791872 -0.71812028
10132000000 -0.45653346 -0.70607966
10136000000 -0.47455779 -0.69422865
10140000000 -0.49266922 -0.6821242
10144000000 -0.50953943 -0.6703288
10148000000 -0.52593303 -0.65661055
10152000000 -0.54313964 -0.64342082
10156000000 -0.55897206 -0.63035309
10160000000 -0.57440066 -0.61589217
10164000000 -0.58951867 -0.6009407
10168000000 -0.60445195 -0.58609796
10172000000 -0.61870617 -0.57043135
10176000000 -0.63265067 -0.55457199
10180000000 -0.64631283 -0.53880125
10184000000 -0.66012913 -0.52287066
10188000000 -0.67351162 -0.50635993
10192000000 -0.68613458 -0.48977384
10196000000 -0.69887108 -0.47272319
10200000000 -0.71002513 -0.45616844
10204000000 -0.72128814 -0.43911013
10208000000 -0.73262852 -0.42182559
10212000000 -0.74193817 -0.40457124
10216000000 -0.7520622 -0.387216
10220000000 -0.76219273 -0.36970988
10224000000 -0.7709682 -0.35165656
10228000000 -0.77964532 -0.33299869
10232000000 -0.78709853 -0.3148928
10236000000 -0.79457414 -0.29614958
10240000000 -0.8012718 -0.27761796
10244000000 -0.8074652 -0.25834054
10248000000 -0.8130098 -0.23960158
10252000000 -0.81953514 -0.22114755
10256000000 -0.82545054 -0.20197502
10260000000 -0.8295058 -0.18272014
10264000000 -0.83444214 -0.16333468
10268000000 -0.83919889 -0.14449029
10272000000 -0.84249288 -0.12569585
10276000000 -0.84610742 -0.10683578
10280000000 -0.84853071 -0.087828353
10284000000 -0.85121948 -0.069014758
10288000000 -0.85249341 -0.050209403
10292000000 -0.85436094 -0.030900043
10296000000 -0.85542548 -0.011752769
10300000000 -0.85547024 0.0070087104
10304000000 -0.85577172 0.02622042
10308000000 -0.85552502 0.045820434
10312000000 -0.85508442 0.06460876
10316000000 -0.85372126 0.083965644
