!Keysight Technologies,N5224A,MY56042273,A.10.60.03
!Date: Wednesday, June 05, 2024 12:04:35
!Correction: S11(Full 1 Port(1)) 
!S1P File: Measurement: S11:
# Hz S  RI   R 50
8000000000 0.81924963 0.26269019
8004000000 0.82492274 0.23823908
8008000000 0.82979733 0.21380413
8012000000 0.83430332 0.1889715
8016000000 0.83837944 0.1649064
8020000000 0.84189272 0.14032643
8024000000 0.84433806 0.11611901
8028000000 0.8458913 0.091410503
8032000000 0.84676856 0.067294098
8036000000 0.84678686 0.043140128
8040000000 0.84702104 0.018864539
8044000000 0.84529525 -0.0052496204
8048000000 0.84364289 -0.029042449
8052000000 0.8409583 -0.053086668
8056000000 0.83746004 -0.076529339
8060000000 0.83416069 -0.10003875
8064000000 0.8294273 -0.12369908
8068000000 0.82468796 -0.14674588
8072000000 0.81893736 -0.16994381
8076000000 0.81273735 -0.19267364
8080000000 0.80596066 -0.21518953
8084000000 0.79863513 -0.23711531
8088000000 0.79030412 -0.25907162
8092000000 0.78197157 -0.28040135
8096000000 0.77281857 -0.30155498
8100000000 0.76270449 -0.32248184
8104000000 0.75213975 -0.34282377
8108000000 0.74130088 -0.36308151
8112000000 0.73024499 -0.38328749
8116000000 0.71830237 -0.40295985
8120000000 0.70612913 -0.42223024
8124000000 0.69361061 -0.4411878
8128000000 0.68030721 -0.45961136
8132000000 0.66704345 -0.47749567
8136000000 0.652789 -0.49539387
8140000000 0.63876772 -0.51276934
8144000000 0.62413472 -0.52915311
8148000000 0.609052 -0.54517895
8152000000 0.59409946 -0.56047118
8156000000 0.5779705 -0.5762338
8160000000 0.56222123 -0.59064567
8164000000 0.54551381 -0.60505801
8168000000 0.52881896 -0.61873823
8172000000 0.51149094 -0.63199574
8176000000 0.49430048 -0.64496595
8180000000 0.47620687 -0.65713286
8184000000 0.45851266 -0.66940433
8188000000 0.44010833 -0.6805917
8192000000 0.42173588 -0.69200355
8196000000 0.40302643 -0.7025224
8200000000 0.3844887 -0.71254569
8204000000 0.36562714 -0.72191507
8208000000 0.34685531 -0.73127222
8212000000 0.32767531 -0.74002308
8216000000 0.30861562 -0.74780244
8220000000 0.28926787 -0.75486207
8224000000 0.26930988 -0.76219302
8228000000 0.24974349 -0.76839352
8232000000 0.22927003 -0.77411228
8236000000 0.20975921 -0.77978563
8240000000 0.18945453 -0.78478342
8244000000 0.1690816 -0.78949362
8248000000 0.14856793 -0.79352742
8252000000 0.12909091 -0.79733038
8256000000 0.10841896 -0.80055833
8260000000 0.088341497 -0.80325347
8264000000 0.068493709 -0.80617422
8268000000 0.048542924 -0.8075819
8272000000 0.028671933 -0.80907059
8276000000 0.0089158304 -0.80937093
8280000000 -0.011409232 -0.80985051
8284000000 -0.030648341 -0.80966181
8288000000 -0.050686337 -0.80798435
8292000000 -0.070565514 -0.80726457
8296000000 -0.09048599 -0.80523044
8300000000 -0.11043827 -0.80293047
8304000000 -0.12993038 -0.80019671
8308000000 -0.14927992 -0.79747128
8312000000 -0.16925661 -0.79358345
8316000000 -0.18879379 -0.78989655
8320000000 -0.20726289 -0.78534633
8324000000 -0.22639263 -0.78051382
8328000000 -0.24544214 -0.77545863
8332000000 -0.26422462 -0.77047014
8336000000 -0.28253886 -0.7638846
8340000000 -0.30116993 -0.75820506
8344000000 -0.31897232 -0.75090796
8348000000 -0.33718303 -0.74365741
8352000000 -0.35472998 -0.73587143
8356000000 -0.37228993 -0.72771949
8360000000 -0.38959274 -0.71914935
8364000000 -0.40663305 -0.71060336
8368000000 -0.42370439 -0.70057529
8372000000 -0.44075799 -0.6917628
8376000000 -0.45729637 -0.68213087
8380000000 -0.4735392 -0.67169827
8384000000 -0.48953491 -0.66089618
8388000000 -0.50506133 -0.65027034
8392000000 -0.52040964 -0.6393891
8396000000 -0.53587812 -0.62788844
8400000000 -0.55056536 -0.6164006
8404000000 -0.56500334 -0.60409552
8408000000 -0.57875955 -0.59123987
8412000000 -0.59295964 -0.57875049
8416000000 -0.60627282 -0.56502712
8420000000 -0.61912203 -0.55156356
8424000000 -0.63247609 -0.53746361
8428000000 -0.64530903 -0.52312309
8432000000 -0.65741134 -0.50885355
8436000000 -0.67003006 -0.49405742
8440000000 -0.68166673 -0.47919893
8444000000 -0.69274503 -0.46397743
8448000000 -0.70393264 -0.44844726
8452000000 -0.71518493 -0.4332827
8456000000 -0.72539455 -0.41708609
8460000000 -0.735425 -0.40129963
8464000000 -0.74462402 -0.38471255
8468000000 -0.75361967 -0.36811247
8472000000 -0.76280284 -0.35158363
8476000000 -0.77148205 -0.33412522
8480000000 -0.78002578 -0.31729725
8484000000 -0.78768128 -0.29996705
8488000000 -0.79537469 -0.28295082
8492000000 -0.80287611 -0.26481304
8496000000 -0.80964416 -0.24702707
8500000000 -0.81556696 -0.22999597
8504000000 -0.82168645 -0.21170424
8508000000 -0.82742524 -0.19383319
8512000000 -0.83241725 -0.17530145
8516000000 -0.83708441 -0.15705559
8520000000 -0.84149611 -0.13884383
8524000000 -0.84476846 -0.12019042
8528000000 -0.84734243 -0.10134131
8532000000 -0.85087115 -0.082369015
8536000000 -0.85287094 -0.063576356
8540000000 -0.85439998 -0.04437241
8544000000 -0.85657442 -0.025318991
8548000000 -0.85740441 -0.0064321565
8552000000 -0.85864049 0.013776733
8556000000 -0.85864097 0.03341496
8560000000 -0.85879403 0.051904988
8564000000 -0.85862368 0.071993284
8568000000 -0.85757697 0.090572432
8572000000 -0.85718596 0.10990377
8576000000 -0.85519665 0.13012788
8580000000 -0.8524543 0.14887311
8584000000 -0.85049468 0.16868234
8588000000 -0.84764171 0.18645668
8592000000 -0.84330469 0.20639691
8596000000 -0.83994591 0.2250696
8600000000 -0.8353439 0.24427453
8604000000 -0.83098882 0.26302126
8608000000 -0.82509565 0.28263047
8612000000 -0.82008529 0.3017132
8616000000 -0.81290025 0.32022899
8620000000 -0.80683076 0.33899549
8624000000 -0.80046189 0.35763019
8628000000 -0.79251045 0.37632975
8632000000 -0.78511029 0.39423069
8636000000 -0.77697116 0.41156596
8640000000 -0.76770169 0.42941725
8644000000 -0.75930148 0.44684663
8648000000 -0.74916524 0.46418992
8652000000 -0.73919785 0.4813765
8656000000 -0.72853357 0.49854061
8660000000 -0.71666652 0.51482069
8664000000 -0.70528466 0.53141809
8668000000 -0.693717 0.5476898
8672000000 -0.68069136 0.56373781
8676000000 -0.66801745 0.58060032
8680000000 -0.65489072 0.59544367
8684000000 -0.64105904 0.61104375
8688000000 -0.62687659 0.62598777
8692000000 -0.61406797 0.64097387
8696000000 -0.59854257 0.65518814
8700000000 -0.58380949 0.66943866
8704000000 -0.5681352 0.68335944
8708000000 -0.5530377 0.6971584
8712000000 -0.53742701 0.70958298
8716000000 -0.52020884 0.7223568
8720000000 -0.50367284 0.73447329
8724000000 -0.48664117 0.74665219
8728000000 -0.46922797 0.75783068
8732000000 -0.45137915 0.76935434
8736000000 -0.43335259 0.77979934
8740000000 -0.41523868 0.790277
8744000000 -0.39644012 0.7999509
8748000000 -0.37771177 0.80925882
8752000000 -0.35845876 0.81801426
8756000000 -0.33912513 0.82623655
8760000000 -0.31981272 0.83468443
8764000000 -0.30002379 0.84212708
8768000000 -0.27996728 0.84899002
8772000000 -0.25936356 0.85468394
8776000000 -0.2387751 0.86107725
8780000000 -0.21889785 0.86623824
8784000000 -0.19736312 0.87179744
8788000000 -0.17617226 0.87573141
8792000000 -0.15459692 0.87977403
8796000000 -0.13338737 0.88326406
8800000000 -0.11167259 0.88625538
8804000000 -0.089554437 0.88852137
8808000000 -0.067493558 0.89016372
8812000000 -0.045975778 0.89166373
8816000000 -0.023837786 0.89262944
8820000000 -0.0022866938 0.8928206
8824000000 0.020112354 0.89231306
8828000000 0.0418256 0.89213043
8832000000 0.063858084 0.89065313
8836000000 0.086296618 0.88920683
8840000000 0.10780264 0.88644916
8844000000 0.13037987 0.88271862
8848000000 0.15218522 0.87904376
8852000000 0.17390133 0.87483871
8856000000 0.1956517 0.86958396
8860000000 0.21714985 0.86460191
8864000000 0.23871237 0.85855049
8868000000 0.26041016 0.85159034
8872000000 0.2817511 0.84428316
8876000000 0.30284828 0.83662283
8880000000 0.32330275 0.82836306
8884000000 0.3441782 0.81922126
8888000000 0.36494461 0.80949926
8892000000 0.38491482 0.79927391
8896000000 0.40510252 0.78837675
8900000000 0.42504567 0.77730954
8904000000 0.44474366 0.7655223
8908000000 0.46448663 0.75330371
8912000000 0.48314762 0.74053675
8916000000 0.50242656 0.7275669
8920000000 0.52111608 0.71371311
8924000000 0.53929019 0.69916046
8928000000 0.55636567 0.68479615
8932000000 0.57418936 0.66953593
8936000000 0.59180295 0.65441185
8940000000 0.60796905 0.63837671
8944000000 0.62400055 0.62147653
8948000000 0.63959044 0.60500288
8952000000 0.65484828 0.5875383
8956000000 0.66940337 0.56967008
8960000000 0.68359417 0.55072141
8964000000 0.69802374 0.53254884
8968000000 0.71084797 0.51338738
8972000000 0.72323453 0.4936434
8976000000 0.73598665 0.47375238
8980000000 0.74734944 0.45369333
8984000000 0.75855803 0.43301353
8988000000 0.76936412 0.41193244
8992000000 0.779374 0.39082447
8996000000 0.78913623 0.36971563
9000000000 0.79758614 0.34786919
9004000000 0.80562288 0.32577017
9008000000 0.81319386 0.30428436
9012000000 0.82062739 0.28136432
9016000000 0.82655984 0.25896791
9020000000 0.83214241 0.23609519
9024000000 0.83735418 0.21301843
9028000000 0.84183109 0.18984768
9032000000 0.84578419 0.16652809
9036000000 0.84996092 0.14285801
9040000000 0.85234129 0.1193759
9044000000 0.85460484 0.095978521
9048000000 0.85628384 0.072467193
9052000000 0.85770911 0.048726439
9056000000 0.85784364 0.025844142
9060000000 0.85762817 0.001860638
9064000000 0.85661781 -0.02140348
9068000000 0.85519326 -0.044479467
9072000000 0.85293508 -0.067896977
9076000000 0.84953356 -0.090934701
9080000000 0.84591728 -0.11385226
9084000000 0.84157997 -0.13681731
9088000000 0.83636791 -0.16003984
9092000000 0.83066589 -0.18231159
9096000000 0.82464975 -0.20520052
9100000000 0.81750017 -0.22790587
9104000000 0.81035697 -0.24993378
9108000000 0.80214816 -0.27162403
9112000000 0.79387653 -0.29355964
9116000000 0.7845915 -0.31431636
9120000000 0.77540475 -0.33553201
9124000000 0.76543295 -0.35617754
9128000000 0.75438035 -0.3764933
9132000000 0.74293578 -0.39609686
9136000000 0.73144317 -0.41604513
9140000000 0.71899897 -0.43521917
9144000000 0.70622385 -0.45468473
9148000000 0.69259894 -0.4732196
9152000000 0.67896116 -0.49175984
9156000000 0.6645112 -0.50946492
9160000000 0.6500513 -0.52755105
9164000000 0.63503575 -0.54435927
9168000000 0.61933821 -0.56102157
9172000000 0.60349381 -0.57741618
9176000000 0.58850884 -0.59354132
9180000000 0.57176292 -0.6082322
9184000000 0.55495042 -0.6226871
9188000000 0.53804344 -0.63735723
9192000000 0.52045041 -0.65113735
9196000000 0.50320786 -0.66353589
9200000000 0.4849261 -0.67663789
9204000000 0.46655738 -0.68822503
9208000000 0.44748747 -0.7001397
9212000000 0.42920026 -0.71086752
9216000000 0.4091624 -0.72112918
9220000000 0.38977763 -0.73116863
9224000000 0.3701275 -0.74045199
9228000000 0.35055175 -0.74942577
9232000000 0.33078378 -0.75818276
9236000000 0.3108505 -0.7655682
9240000000 0.29041356 -0.77334756
9244000000 0.27035642 -0.77958781
9248000000 0.25045028 -0.78671372
9252000000 0.230003 -0.79198468
9256000000 0.20951648 -0.79782552
9260000000 0.18878411 -0.80218887
9264000000 0.16791141 -0.80656439
9268000000 0.14706065 -0.81036782
9272000000 0.12635879 -0.81295717
9276000000 0.10561317 -0.81635702
9280000000 0.084746383 -0.81856614
9284000000 0.063977525 -0.8201288
9288000000 0.043841187 -0.82154888
9292000000 0.02316306 -0.82210767
9296000000 0.0030148288 -0.82266563
9300000000 -0.016890517 -0.8226546
9304000000 -0.037409924 -0.82212704
9308000000 -0.057123572 -0.82067043
9312000000 -0.077091068 -0.81907839
9316000000 -0.097228661 -0.81637609
9320000000 -0.11715997 -0.81401742
9324000000 -0.13660276 -0.81053478
9328000000 -0.15636267 -0.80656385
9332000000 -0.17561434 -0.80209607
9336000000 -0.19491756 -0.79792184
9340000000 -0.21408576 -0.79277903
9344000000 -0.23314574 -0.7870993
9348000000 -0.25227979 -0.78160155
9352000000 -0.27054319 -0.77587938
9356000000 -0.28877747 -0.76923412
9360000000 -0.30692881 -0.76254845
9364000000 -0.32495198 -0.75539333
9368000000 -0.34243008 -0.74793816
9372000000 -0.3590011 -0.73988944
9376000000 -0.37655032 -0.73187125
9380000000 -0.393397 -0.723198
9384000000 -0.41023517 -0.71354949
9388000000 -0.42688581 -0.70393395
9392000000 -0.44304597 -0.69430137
9396000000 -0.45946804 -0.68383741
9400000000 -0.47520837 -0.67376786
9404000000 -0.49058646 -0.6626814
9408000000 -0.50624239 -0.65182793
9412000000 -0.5213393 -0.64084464
9416000000 -0.53597736 -0.62878132
9420000000 -0.55019188 -0.61729556
9424000000 -0.56384349 -0.60552692
9428000000 -0.57761222 -0.59365791
9432000000 -0.59071046 -0.58153462
9436000000 -0.60371178 -0.56906915
9440000000 -0.61616361 -0.55578768
9444000000 -0.62809545 -0.54239804
9448000000 -0.64023513 -0.52833372
9452000000 -0.65185821 -0.5144797
9456000000 -0.66355717 -0.49984229
9460000000 -0.67414832 -0.48521852
9464000000 -0.68514431 -0.47041035
9468000000 -0.69597393 -0.45589495
9472000000 -0.70590281 -0.44102466
9476000000 -0.71582526 -0.42629206
9480000000 -0.72568101 -0.41101888
9484000000 -0.73502713 -0.39538327
9488000000 -0.74385679 -0.38065135
9492000000 -0.75237435 -0.36528224
9496000000 -0.76032645 -0.34961212
9500000000 -0.76812571 -0.33405659
9504000000 -0.77544785 -0.31843966
9508000000 -0.78241825 -0.30223206
9512000000 -0.78867149 -0.28583369
9516000000 -0.79536539 -0.26959097
9520000000 -0.80122191 -0.25279441
9524000000 -0.80693948 -0.23616534
9528000000 -0.81240314 -0.21924876
9532000000 -0.81719011 -0.20233458
9536000000 -0.82223946 -0.18562222
9540000000 -0.82675803 -0.16883883
9544000000 -0.83099443 -0.15228222
9548000000 -0.83454239 -0.13546193
9552000000 -0.83830488 -0.11880634
9556000000 -0.84063911 -0.10241263
9560000000 -0.84421003 -0.085367419
9564000000 -0.84557641 -0.06865216
9568000000 -0.84737104 -0.05130095
9572000000 -0.84927493 -0.034311164
9576000000 -0.84970075 -0.016938036
9580000000 -0.85055387 0.00029482617
9584000000 -0.85104322 0.017418515
9588000000 -0.85074335 0.035000712
9592000000 -0.85042775 0.051969085
9596000000 -0.85010695 0.06957759
9600000000 -0.84923267 0.086570919
9604000000 -0.84844387 0.10353503
9608000000 -0.84749252 0.12019884
9612000000 -0.84575206 0.13724735
9616000000 -0.84382236 0.15448678
9620000000 -0.84143555 0.17040089
9624000000 -0.83855808 0.18729585
9628000000 -0.83545303 0.20326523
9632000000 -0.83169663 0.22056425
9636000000 -0.82820338 0.23668179
9640000000 -0.82358593 0.25355837
9644000000 -0.81952953 0.26990595
9648000000 -0.81421155 0.28656659
9652000000 -0.80912423 0.30301771
9656000000 -0.8041411 0.31978351
9660000000 -0.79831201 0.33524528
9664000000 -0.79187447 0.35125574
9668000000 -0.78600627 0.36763579
9672000000 -0.77889282 0.38362744
9676000000 -0.77313405 0.39828682
9680000000 -0.76555008 0.41383916
9684000000 -0.75850743 0.42937884
9688000000 -0.7506066 0.44339713
9692000000 -0.74266022 0.45873103
9696000000 -0.73361421 0.47327176
9700000000 -0.72454625 0.48808762
9704000000 -0.71499771 0.50281066
9708000000 -0.705347 0.5169102
9712000000 -0.69558376 0.53089732
9716000000 -0.68497324 0.54533118
9720000000 -0.6752882 0.55985129
9724000000 -0.66495758 0.57344031
9728000000 -0.65411681 0.58680266
9732000000 -0.64330482 0.59990942
9736000000 -0.63245857 0.61356312
9740000000 -0.62059593 0.62635696
9744000000 -0.60908937 0.63887864
9748000000 -0.59719682 0.65082896
9752000000 -0.58469427 0.66324377
9756000000 -0.57246405 0.67526442
9760000000 -0.55946624 0.68634385
9764000000 -0.54585516 0.69757491
9768000000 -0.53264314 0.70941925
9772000000 -0.51858413 0.72048801
9776000000 -0.5040074 0.73067224
9780000000 -0.48985466 0.74134225
9784000000 -0.47592551 0.75193655
9788000000 -0.46158856 0.76180035
9792000000 -0.44699618 0.77144575
9796000000 -0.43250108 0.78103584
9800000000 -0.41727614 0.79011047
9804000000 -0.40210485 0.79974473
9808000000 -0.38625896 0.80717194
9812000000 -0.3714923 0.81530076
9816000000 -0.35573485 0.82204843
9820000000 -0.33976135 0.82950884
9824000000 -0.32368401 0.8368513
9828000000 -0.30634815 0.84296662
9832000000 -0.28983647 0.84983039
9836000000 -0.27265915 0.85510552
9840000000 -0.25473484 0.86098552
9844000000 -0.23752943 0.86682445
9848000000 -0.22002643 0.87171805
9852000000 -0.20201541 0.87629956
9856000000 -0.18443306 0.88165885
9860000000 -0.16668345 0.88484937
9864000000 -0.14934029 0.89005959
9868000000 -0.13089782 0.89326787
9872000000 -0.11279894 0.89585441
9876000000 -0.095206723 0.8984853
9880000000 -0.076907188 0.90084678
9884000000 -0.058222324 0.90303838
9888000000 -0.040043805 0.90476465
9892000000 -0.020752797 0.90535033
9896000000 -0.0026779727 0.90528554
9900000000 0.01690382 0.90554738
9904000000 0.035543043 0.90480995
9908000000 0.05448224 0.90364563
9912000000 0.073190071 0.90256256
9916000000 0.0930316 0.90173852
9920000000 0.11130477 0.89949203
9924000000 0.12969223 0.89804047
9928000000 0.14831148 0.8957395
9932000000 0.16762547 0.8920725
9936000000 0.18663837 0.88893825
9940000000 0.20568924 0.88501585
9944000000 0.22390783 0.88006049
9948000000 0.24285795 0.8752321
9952000000 0.26196384 0.87012559
9956000000 0.27992722 0.86440325
9960000000 0.2987617 0.85767728
9964000000 0.31829616 0.85159296
9968000000 0.33614865 0.84450632
9972000000 0.35509163 0.83782142
9976000000 0.37332574 0.83009428
9980000000 0.39146709 0.82113409
9984000000 0.40934417 0.81323338
9988000000 0.42684063 0.8036989
9992000000 0.44414964 0.79446232
9996000000 0.46151844 0.78411323
10000000000 0.4793627 0.77444285
10004000000 0.49609122 0.76368564
10008000000 0.51328266 0.75172973
10012000000 0.53009892 0.74114466
10016000000 0.54645526 0.72845024
10020000000 0.56288117 0.71623641
10024000000 0.5784868 0.70274705
10028000000 0.5948692 0.68928725
10032000000 0.61066377 0.6751588
10036000000 0.62548685 0.66147429
10040000000 0.64019573 0.64680809
10044000000 0.65489823 0.63233477
10048000000 0.6690132 0.61706322
10052000000 0.68249047 0.60169041
10056000000 0.69594276 0.58522916
10060000000 0.70896745 0.56868464
10064000000 0.72176933 0.55155683
10068000000 0.73371315 0.53467673
10072000000 0.74593657 0.51645333
10076000000 0.75768727 0.49864465
10080000000 0.76889068 0.4799431
10084000000 0.77965218 0.46093363
10088000000 0.78990048 0.44197369
10092000000 0.80039376 0.42240307
10096000000 0.80949885 0.40282181
10100000000 0.81876707 0.38313115
10104000000 0.82806051 0.36284038
10108000000 0.83589679 0.34336075
10112000000 0.84367716 0.32334325
10116000000 0.85069543 0.30223379
10120000000 0.85716641 0.28141275
10124000000 0.86293936 0.26026404
10128000000 0.86891311 0.23914419
10132000000 0.87380862 0.21713397
10136000000 0.87798673 0.1951433
10140000000 0.88207179 0.17373371
10144000000 0.88463891 0.15158576
10148000000 0.88788444 0.12858663
10152000000 0.89082444 0.10656293
10156000000 0.89171559 0.084316932
10160000000 0.89285421 0.061448708
10164000000 0.89388704 0.040167667
10168000000 0.8941803 0.017613403
10172000000 0.89353138 -0.0046413573
10176000000 0.89257312 -0.027184432
10180000000 0.89008951 -0.049785223
10184000000 0.88760036 -0.071641713
10188000000 0.88422078 -0.093971774
10192000000 0.88050741 -0.11643861
10196000000 0.875655 -0.13870153
10200000000 0.87062198 -0.16151629
10204000000 0.8653267 -0.18421245
10208000000 0.85940111 -0.20614354
10212000000 0.85239452 -0.22876535
10216000000 0.84554482 -0.25074548
10220000000 0.83832484 -0.27227089
10224000000 0.83012348 -0.29394525
10228000000 0.82227081 -0.31484485
10232000000 0.81279361 -0.33625126
10236000000 0.80347365 -0.35677218
10240000000 0.79286623 -0.37716484
10244000000 0.78227037 -0.39725938
10248000000 0.77069372 -0.41711259
10252000000 0.75865299 -0.43559256
10256000000 0.74615687 -0.45545694
10260000000 0.73245037 -0.4743275
10264000000 0.71915805 -0.49305755
10268000000 0.70515418 -0.51120901
10272000000 0.68952906 -0.52965081
10276000000 0.6744343 -0.54703158
10280000000 0.65875882 -0.56475717
10284000000 0.64327753 -0.58097082
10288000000 0.62654895 -0.59768981
10292000000 0.61022216 -0.61297095
10296000000 0.59323841 -0.62836635
10300000000 0.5751918 -0.64305544
10304000000 0.55766767 -0.65751272
10308000000 0.53911579 -0.67157388
10312000000 0.52047074 -0.68461847
10316000000 0.50096381 -0.69761962
10320000000 0.4819791 -0.70956099
