!Agilent Technologies,E8364C,MY43040861,A.09.42.22
!Agilent E8364C: A.09.42.22
!Date: Tuesday, October 31, 2023 13:58:35
!Correction: S11(Full 2 Port(1,2)) 
!S21(Full 2 Port(1,2)) 
!S12(Full 2 Port(1,2)) 
!S22(Full 2 Port(1,2)) 
!S2P File: Measurements: S11, S21, S12, S22:
# Hz S  RI   R 50
10000000 -0.010666056 -0.002314192 1.0072143 -0.018165827 1.0027192 -0.0027935787 0.0012729035 -0.018421561
259950000 0.0012084511 -0.0050122752 0.95866776 -0.27425829 0.95817727 -0.27687928 -0.019264679 -0.018798409
509900000 -0.0017236006 -0.014212498 0.84984839 -0.51701146 0.85021913 -0.51673609 -0.028797772 -0.0092962859
759850000 -0.014466106 -0.014976933 0.68615544 -0.72340673 0.68664086 -0.72238982 -0.034695994 0.0012117631
1009800000 -0.021474924 -0.010779098 0.47069031 -0.87675858 0.47065926 -0.87801361 -0.03493664 0.010073072
1259750000 -0.026751857 -0.0065652942 0.22439186 -0.97345823 0.22572355 -0.97280568 -0.026923241 0.014399749
1509700000 -0.024821267 0.0020223628 -0.039392587 -0.99300933 -0.041941084 -0.99488735 -0.016450044 0.018308384
1759650000 -0.018007981 0.0063747298 -0.2979818 -0.9509542 -0.30058134 -0.94849241 -0.00192234 0.017750613
2009600000 -0.014112115 0.0054562152 -0.53721011 -0.83203608 -0.53859484 -0.83224344 0.0061083375 0.010752959
2259550000 -0.016159609 0.00025927875 -0.73881817 -0.66682756 -0.73852128 -0.66768336 0.0077466746 -0.00010582323
2509500000 -0.02464767 -0.0011922178 -0.8896184 -0.45053115 -0.88308179 -0.44884396 0.00067640701 -0.0089031961
2759450000 -0.032714278 0.0035459229 -0.97468275 -0.20230818 -0.96793306 -0.20435177 -0.0024896751 -0.016516561
3009400000 -0.037428979 0.013224465 -0.99298739 0.060453899 -0.9985112 0.062057905 -0.013361567 -0.033123899
3259350000 -0.038031153 0.028822031 -0.93839288 0.3136532 -0.93012166 0.33340225 -0.0410579 -0.030928865
3509300000 -0.033092331 0.041573945 -0.82460392 0.57057399 -0.81318456 0.54152435 -0.052340437 -0.012303895
3759250000 -0.017662611 0.050999507 -0.63903511 0.73705 -0.66085726 0.7594344 -0.058486469 0.0092017232
4009200000 0.0010300984 0.054086268 -0.41592616 0.90268725 -0.40374839 0.88411099 -0.050900325 0.023781229
4259150000 0.011821941 0.047226954 -0.1737278 0.97086483 -0.17973506 0.98169762 -0.036274131 0.03474585
4509100000 0.026890293 0.036206853 0.088940211 0.98720545 0.082876258 0.98441666 -0.01649186 0.03759535
4759050000 0.030429777 0.021366457 0.3420178 0.92862481 0.33885184 0.92723268 0.0022711703 0.033076752
5009000000 0.026553541 0.0099283503 0.57833427 0.80945694 0.5765844 0.80347705 0.0097754914 0.024276258
5258950000 0.016101858 0.0044144965 0.76531941 0.6199472 0.75995511 0.63242185 0.014162904 0.0088153034
5508900000 0.0092756199 0.0033914244 0.89917201 0.41066268 0.91255212 0.40253177 0.010533595 -0.0065493765
5758850000 0.0070835673 0.0082910042 0.97782987 0.1408691 0.96749812 0.14937034 -0.00029992001 -0.018581223
6008800000 0.0076432284 0.012985532 0.98207194 -0.10988086 0.98324436 -0.11141161 -0.0074743852 -0.020902539
6258750000 0.013717577 0.01331477 0.92297244 -0.36637187 0.92030114 -0.36361107 -0.018386316 -0.01987613
6508700000 0.020395603 0.0076924926 0.79800296 -0.59742689 0.80469835 -0.59602541 -0.027724106 -0.016169215
6758650000 0.022769731 -0.0016265782 0.59879744 -0.77022004 0.59126377 -0.77490604 -0.030173324 -0.0091826022
7008600000 0.017502174 -0.01377676 0.3892985 -0.91402197 0.3833425 -0.90108317 -0.031960756 -0.0052498379
7258550000 0.010005313 -0.017975479 0.1206036 -0.97984231 0.12965544 -0.98362046 -0.022997502 0.00055566308
7508500000 -0.0047852453 -0.016588394 -0.1365553 -0.97684366 -0.13756798 -0.9707011 -0.016097471 0.0038711692
7758450000 -0.01733952 -0.0065224664 -0.38626868 -0.90823489 -0.387346 -0.90253782 -0.015586282 0.002925419
8008400000 -0.02024016 0.0081235832 -0.61174744 -0.76585633 -0.60448158 -0.77536851 -0.021157464 0.0019837364
8258350000 -0.015943125 0.02177717 -0.78411752 -0.59210068 -0.79584479 -0.5823682 -0.023854872 -0.00088787603
8508300000 -0.0022611106 0.026706005 -0.92300916 -0.35282215 -0.90704083 -0.3546848 -0.025805274 -0.00071930373
8758250000 0.014533622 0.028212557 -0.964068 -0.097457565 -0.98357356 -0.11234179 -0.032675758 0.0015614001
9008200000 0.019950891 0.022834372 -0.97649151 0.14468214 -0.97052211 0.1703544 -0.03692691 0.0033417111
9258150000 0.021581301 0.0059706499 -0.88950413 0.41548333 -0.88042796 0.39563811 -0.028227007 0.011183912
9508100000 0.024421031 -0.0074346722 -0.75085115 0.61224145 -0.76854229 0.62225062 -0.025133088 0.021922251
9758050000 0.016750939 -0.012625981 -0.56340742 0.81008291 -0.55407876 0.80940276 -0.016900616 0.022758741
10008000000 0.0095324432 -0.015054109 -0.33358082 0.92083842 -0.33595732 0.92020637 -0.0067819264 0.021569652
10257950000 0.0066181212 -0.0089168726 -0.07389047 0.97100544 -0.07711108 0.97282481 0.0051061707 0.012557375
10507900000 0.0063448912 -0.0075228959 0.17814085 0.95877284 0.17559746 0.95895326 0.013192981 0.0065058931
10757850000 0.0085706832 -0.0097467005 0.4164547 0.87929595 0.42189944 0.88075227 0.0095045902 -0.0050439211
11007800000 0.010810792 -0.017353587 0.64426446 0.74152273 0.63865286 0.74227738 0.00045288383 -0.018820135
11257750000 0.0087686684 -0.028660508 0.80268413 0.54003382 0.81229234 0.54028541 -0.010307344 -0.030675869
11507700000 0.0010401799 -0.040807527 0.92255729 0.32296994 0.91125005 0.31089148 -0.030016666 -0.037125297
11757650000 -0.015578451 -0.045448113 0.97777736 0.050385255 0.98519778 0.064079866 -0.045764342 -0.029903507
12007600000 -0.033555508 -0.043537062 0.96099484 -0.19606499 0.95286852 -0.20063499 -0.06191089 -0.016393663
12257550000 -0.048384339 -0.034530882 0.85504615 -0.45119992 0.86459517 -0.43402642 -0.067498796 0.0060143187
12507500000 -0.062198538 -0.013422927 0.72738522 -0.64445138 0.72906125 -0.66359645 -0.070399046 0.027557401
12757450000 -0.064871348 0.0049700974 0.53024715 -0.82802874 0.51571524 -0.80958074 -0.058956075 0.048002083
13007400000 -0.05803287 0.024269812 0.28973702 -0.918769 0.29872653 -0.92192328 -0.036268044 0.063217215
13257350000 -0.042020921 0.038594209 0.036104515 -0.97469974 0.04070152 -0.97920305 -0.014668622 0.069201455
13507300000 -0.026948934 0.045143437 -0.21634959 -0.94894785 -0.2080165 -0.94422024 0.013011559 0.056255639
13757250000 -0.018072579 0.041909438 -0.46030265 -0.85285819 -0.45936877 -0.85645157 0.032695703 0.041431345
14007200000 -0.011009871 0.033625927 -0.66290098 -0.70899475 -0.66070557 -0.70892084 0.040229604 0.018277043
14257150000 -0.0083379485 0.02928433 -0.84108305 -0.50761944 -0.83204252 -0.51179808 0.033979215 -0.010257159
14507100000 -0.010713113 0.023240166 -0.92148215 -0.2684857 -0.93038589 -0.26062119 0.016666021 -0.027499238
14757050000 -0.01556915 0.020883668 -0.97858202 -0.024570892 -0.9647879 -0.029465456 -0.0084780715 -0.030632935
15007000000 -0.018432705 0.023613263 -0.93697006 0.25603998 -0.95351976 0.24364188 -0.037660141 -0.022835303
15256950000 -0.017154599 0.0261169 -0.85042036 0.47447795 -0.84791058 0.47964522 -0.046513446 -0.0081105419
15506900000 -0.013557661 0.028886259 -0.6946013 0.68139046 -0.69558161 0.66852844 -0.043433055 0.016394317
15756850000 -0.010871717 0.032906923 -0.48740602 0.83380342 -0.4891955 0.84559089 -0.037337121 0.033314247
16006800000 -0.002783672 0.031701464 -0.25542191 0.93250275 -0.25829983 0.93519914 -0.017641105 0.043781217
16256750000 -0.00045302603 0.028608691 0.0040809806 0.96268344 -0.00049829605 0.96569467 0.0015020053 0.03861054
16506700000 0.00092358654 0.025147958 0.25775036 0.93519008 0.25740108 0.93065649 0.011764239 0.03059944
16756650000 -0.0024546396 0.021647861 0.48800275 0.83429217 0.4987258 0.83788943 0.0067508961 0.012130262
17006600000 -0.0077562784 0.016225047 0.69777453 0.67987168 0.68980873 0.67082679 0.0019323943 -8.0970649e-006
17256550000 -0.015205326 0.015856545 0.83899105 0.4585914 0.84043509 0.47749555 -0.01696125 0.0023464845
17506500000 -0.020484522 0.024233537 0.93988031 0.24056077 0.94705355 0.2267314 -0.0315593 0.013557952
17756450000 -0.030830983 0.028118789 0.96870685 -0.038094632 0.9548142 -0.026042745 -0.027475027 0.029302228
18006400000 -0.034219921 0.035037905 0.92321587 -0.26670942 0.94048864 -0.26061261 -0.010286292 0.05173219
18256350000 -0.030760858 0.049041048 0.83269513 -0.51119941 0.82119954 -0.52113777 0.0077822511 0.065651141
18506300000 -0.023129046 0.065717384 0.64683777 -0.7025184 0.65448356 -0.69765288 0.041774914 0.061493237
18756250000 -0.012670315 0.076981939 0.46196628 -0.85763037 0.45984799 -0.8600924 0.066505611 0.040467139
19006200000 0.0058851857 0.083267905 0.21057405 -0.94658172 0.2069241 -0.9481523 0.079750806 0.0087671708
19256150000 0.029884286 0.080433987 -0.048923831 -0.96032238 -0.042537171 -0.96984076 0.068107359 -0.033483133
19506100000 0.04360633 0.076842062 -0.29787686 -0.91386765 -0.29702622 -0.92813253 0.052507274 -0.070244305
19756050000 0.054781429 0.063395619 -0.52168262 -0.82052702 -0.52197415 -0.81672138 0.014988024 -0.078849941
20006000000 0.061805047 0.043215513 -0.71453124 -0.6430707 -0.72438031 -0.64275134 -0.031658206 -0.075118676
20255950000 0.057952262 0.02550333 -0.85452485 -0.43977422 -0.86378682 -0.42457566 -0.057481237 -0.049618311
20505900000 0.050205275 0.011259655 -0.95624226 -0.18763737 -0.93845385 -0.20217459 -0.068924718 -0.010883963
20755850000 0.037602592 0.0092228036 -0.95231611 0.061573748 -0.97362351 0.068217069 -0.069567218 0.027596487
21005800000 0.031966344 0.0077978326 -0.92559737 0.29698622 -0.9008323 0.32192293 -0.041193329 0.049658325
21255750000 0.031501837 0.014014966 -0.78806835 0.54941797 -0.80729276 0.53627026 -0.0016457026 0.059177756
21505700000 0.034522466 0.021396289 -0.6351949 0.7244941 -0.62781537 0.74594021 0.028923653 0.053625751
21755650000 0.039053552 0.017965239 -0.41432729 0.88322979 -0.40474367 0.86432081 0.054263826 0.032595813
22005600000 0.046345457 0.011268295 -0.16971801 0.94262117 -0.17244762 0.95571202 0.062442005 -0.0038958516
22255550000 0.052923851 0.0050348709 0.083946027 0.9653219 0.088718437 0.96167022 0.056585725 -0.01961937
22505500000 0.043862633 -0.0063413777 0.33434287 0.90623844 0.33654475 0.91003442 0.035632771 -0.0348849
22755450000 0.029462377 -0.01568206 0.56580508 0.78346348 0.56167883 0.78057939 0.012693543 -0.039619178
23005400000 0.016326535 -0.014224707 0.75319785 0.6145469 0.75788373 0.60816705 -0.00063876354 -0.032685943
23255350000 0.0058174971 -0.0062602507 0.87401265 0.39310643 0.87268394 0.39309752 0.0033783356 -0.019278981
23505300000 0.00072329887 0.0051614968 0.97266793 0.15317875 0.96611834 0.15246384 0.0090074968 -0.0067541068
23755250000 0.0045768004 0.029848408 0.95378542 -0.11166568 0.95643944 -0.12085177 0.023903336 -0.012944144
24005200000 0.026319645 0.031706855 0.90541434 -0.34810585 0.88997114 -0.34379777 0.034149036 -0.033032838
24255150000 0.043588575 0.038015548 0.76982445 -0.58791786 0.78155267 -0.59108961 0.037464693 -0.054064222
24505100000 0.060946908 0.024575662 0.60119665 -0.75714058 0.58756804 -0.76238739 0.01836005 -0.077881031
24755050000 0.074355632 0.0091393488 0.37948248 -0.90641314 0.37862152 -0.87973309 -0.011244823 -0.08802776
25005000000 0.073357649 -0.017118186 0.12187942 -0.95884758 0.13127443 -0.96776414 -0.044343505 -0.086878605
25254950000 0.063886985 -0.038030654 -0.13261515 -0.95844942 -0.12489618 -0.96433234 -0.073838018 -0.05078141
25504900000 0.056421645 -0.047611132 -0.38384855 -0.89679611 -0.37222487 -0.89873189 -0.085646674 -0.016765336
25754850000 0.045242202 -0.051878482 -0.60036999 -0.75819176 -0.60858017 -0.76681107 -0.071528882 0.027222855
26004800000 0.03284625 -0.057159185 -0.7911002 -0.57063419 -0.78044713 -0.58103216 -0.04132656 0.054111455
26254750000 0.02472182 -0.053589247 -0.89515626 -0.34257585 -0.90617412 -0.35630229 0.005711975 0.060972884
26504700000 0.018985534 -0.053773485 -0.97659039 -0.12031347 -0.98472732 -0.091654561 0.04248216 0.045009106
26754650000 0.0073779942 -0.066279463 -0.95669514 0.16253819 -0.94701725 0.15265517 0.064785048 0.0051329802
27004600000 0.00027458952 -0.067961834 -0.89062554 0.39095759 -0.89441675 0.40520972 0.069271162 -0.038771044
27254550000 -0.018124171 -0.074075095 -0.75709158 0.63649625 -0.73936719 0.64099598 0.049503621 -0.070495695
27504500000 -0.034386165 -0.062623054 -0.54962409 0.78700399 -0.54816341 0.77763188 0.021291958 -0.086162522
27754450000 -0.053949535 -0.050374754 -0.32642597 0.92544788 -0.32142383 0.91931587 -0.0094338637 -0.085431814
28004400000 -0.058543421 -0.027762784 -0.065106697 0.97249299 -0.068425149 0.96394646 -0.030880565 -0.072213925
28254350000 -0.045505989 -0.011871456 0.183024 0.95783991 0.17492089 0.95102423 -0.038286757 -0.05238742
28504300000 -0.032442797 0.0085812472 0.42437702 0.86831641 0.42628434 0.86656815 -0.031711265 -0.042728756
28754250000 -0.012648978 0.01385683 0.64263427 0.72630125 0.64200324 0.73372954 -0.021336081 -0.042777594
29004200000 0.0045956858 0.0042359908 0.80092514 0.53418559 0.81504607 0.5250836 -0.018095851 -0.050082229
29254150000 0.020166481 -0.01219452 0.93210769 0.30276805 0.91102457 0.3023434 -0.026538918 -0.062920235
29504100000 0.015070836 -0.039643589 0.95556438 0.042109564 0.98077911 0.05010872 -0.043776385 -0.071499944
29754050000 -9.8884466e-006 -0.050459858 0.95708799 -0.19070452 0.93032503 -0.22524506 -0.065187842 -0.060809478
30004000000 -0.021634785 -0.057281036 0.85631841 -0.4518199 0.86181509 -0.45037302 -0.085869946 -0.042212296
30253950000 -0.038481701 -0.049909018 0.71909255 -0.6718114 0.69657546 -0.65697682 -0.09024556 -0.012757033
30503900000 -0.042038422 -0.034040973 0.49678218 -0.82477903 0.52276891 -0.82386094 -0.076995455 0.020631865
30753850000 -0.035735756 -0.025309153 0.28273255 -0.92589772 0.2712703 -0.93488204 -0.047387395 0.036964986
31003800000 -0.024846785 -0.025169643 0.015006525 -0.96804631 0.016500499 -0.96167761 -0.012397191 0.038982641
31253750000 -0.0078131035 -0.03696464 -0.23623498 -0.92969525 -0.23597705 -0.94047558 0.026570749 0.021550113
31503700000 -0.0072168717 -0.061155956 -0.48213422 -0.8420493 -0.47407979 -0.84427696 0.049087204 -0.012943115
31753650000 -0.023188712 -0.090887554 -0.68206179 -0.68037868 -0.68458754 -0.69016975 0.057213522 -0.051394299
32003600000 -0.063164495 -0.1072333 -0.84274131 -0.47118005 -0.84903967 -0.47391823 0.041139998 -0.090901852
32253550000 -0.11222281 -0.10592789 -0.93794084 -0.23558843 -0.94432694 -0.24706548 0.01315091 -0.12477333
32503500000 -0.15694831 -0.073043779 -0.94855261 0.029063605 -0.96125233 0.040504374 -0.02620782 -0.14116077
32753450000 -0.1859289 -0.022718912 -0.92009586 0.25812903 -0.90249985 0.24456501 -0.069776505 -0.13802102
33003400000 -0.18051994 0.042637337 -0.79602122 0.5140149 -0.81709898 0.51906431 -0.1179827 -0.12253289
33253350000 -0.15112403 0.095009074 -0.66242301 0.66904837 -0.63268715 0.66341317 -0.14899911 -0.08361239
33503300000 -0.099152587 0.12777366 -0.44246954 0.83917147 -0.45286307 0.83542252 -0.15893792 -0.047879178
33753250000 -0.036742415 0.12323622 -0.22383429 0.91811246 -0.20547463 0.92200524 -0.15226407 -0.0054923599
34003200000 0.010404924 0.090730675 0.032794114 0.95557266 0.027589446 0.94847387 -0.12921311 0.021709785
34253150000 0.029845839 0.035538599 0.27972558 0.90511197 0.27767661 0.91365325 -0.092611283 0.026286038
34503100000 0.0086902324 -0.013304848 0.5106014 0.79593706 0.51241308 0.80340248 -0.069698073 0.017845875
34753050000 -0.032668058 -0.039174534 0.70065826 0.63740546 0.7095148 0.64258331 -0.058203287 -0.0056219036
35003000000 -0.07593637 -0.040519256 0.85135305 0.41639003 0.84204537 0.41968396 -0.069033302 -0.018655688
35252950000 -0.11190073 -0.0092708776 0.9147194 0.20057349 0.91315669 0.2017256 -0.087923512 -0.021807039
35502900000 -0.12057164 0.037805729 0.94072819 -0.057994395 0.93392444 -0.060477745 -0.1072197 -0.0061044586
35752850000 -0.10311179 0.076281086 0.88353652 -0.29625148 0.89595598 -0.28734741 -0.11218008 0.01854177
36002800000 -0.066881962 0.092473686 0.79075789 -0.52020496 0.78221512 -0.52375209 -0.095947504 0.043333225
36252750000 -0.02701262 0.084202453 0.61706072 -0.7241776 0.63284117 -0.72219682 -0.067043841 0.054542389
36502700000 0.00023018743 0.050647624 0.41101709 -0.84525001 0.39389274 -0.85427403 -0.027477456 0.047684915
36752650000 -0.0097018769 0.0081171058 0.16161244 -0.93869054 0.17004578 -0.92900383 -0.0025889955 0.018423514
37002600000 -0.046006545 -0.023551101 -0.085465305 -0.93179935 -0.089435317 -0.94338799 -0.0037986196 -0.032759998
37252550000 -0.096558198 -0.025157163 -0.328188 -0.87102067 -0.33528218 -0.86791801 -0.035409782 -0.075514741
37502500000 -0.1483451 0.010555278 -0.53952229 -0.76092952 -0.54797167 -0.76330364 -0.086908154 -0.091880344
37752450000 -0.17053418 0.065725699 -0.73068851 -0.57259911 -0.71691275 -0.56800109 -0.15160246 -0.086133324
38002400000 -0.16108575 0.12585223 -0.83639157 -0.38686979 -0.84794813 -0.39238864 -0.19436757 -0.033891734
38252350000 -0.11854137 0.17804909 -0.90913826 -0.13599162 -0.902385 -0.11127338 -0.20975189 0.026886757
38502300000 -0.063828789 0.20099512 -0.89612597 0.106015 -0.88826102 0.09488748 -0.20063464 0.093450032
38752250000 -0.0083531691 0.19504508 -0.88663518 0.32419994 -0.87015361 0.34030488 -0.15113179 0.14242315
39002200000 0.036364309 0.15874362 -0.72584814 0.52829391 -0.72537619 0.53751397 -0.090974391 0.1599278
39252150000 0.061356008 0.11088641 -0.5980081 0.70697606 -0.59469205 0.71723306 -0.037974644 0.14444633
39502100000 0.04947326 0.062560037 -0.36977211 0.85511476 -0.37588164 0.85809696 0.00045779021 0.10860948
39752050000 0.016449843 0.039108552 -0.15455678 0.92166716 -0.13402051 0.91630822 0.0067835199 0.067184813
40002000000 -0.015009386 0.049299963 0.11605906 0.9221307 0.11559448 0.92583233 -0.011518904 0.031458315
40251950000 -0.037521757 0.074837744 0.36535975 0.86101943 0.35600585 0.86375958 -0.049707416 0.024579499
40501900000 -0.032123782 0.1009451 0.57089865 0.7365486 0.56721979 0.73508358 -0.067523204 0.041410662
40751850000 -0.013237003 0.11540169 0.73790199 0.55433482 0.75222564 0.56034636 -0.06882067 0.073399782
41001800000 0.017403364 0.11834446 0.85751963 0.35100958 0.85514283 0.33007994 -0.047417246 0.097507358
41251750000 0.04258867 0.09696988 0.9226048 0.10155115 0.91879869 0.11606945 -0.015677452 0.10399835
41501700000 0.047985394 0.062566243 0.91359711 -0.13129275 0.92422372 -0.14420815 0.019318512 0.083909981
41751650000 0.029087484 0.030502014 0.84622312 -0.3860018 0.83562088 -0.37262201 0.027079005 0.047305346
42001600000 -0.0062739383 0.0095333345 0.71543896 -0.57587564 0.73099387 -0.58035386 0.0080985818 0.010211679
42251550000 -0.047644943 0.023699593 0.54448998 -0.76904476 0.5322032 -0.77702987 -0.024129665 -0.005856209
42501500000 -0.071325034 0.061382718 0.3003231 -0.8763144 0.30947882 -0.87152225 -0.066197507 -0.0024202685
42751450000 -0.077432193 0.10248289 0.078716688 -0.91634333 0.066726357 -0.92990851 -0.1040063 0.032912698
43001400000 -0.061866738 0.14262033 -0.18010506 -0.903521 -0.18571533 -0.8859129 -0.11168295 0.085120663
43251350000 -0.018695293 0.17196557 -0.38940671 -0.80465323 -0.40311572 -0.80153447 -0.08760751 0.13365713
43501300000 0.024625363 0.18409376 -0.5860725 -0.69894558 -0.57891959 -0.67272633 -0.043337379 0.16197675
43751250000 0.070812754 0.16543424 -0.73622161 -0.48096168 -0.75235796 -0.48208451 0.0076173651 0.17449683
44001200000 0.10213082 0.13411631 -0.84188724 -0.2975772 -0.84173614 -0.30361745 0.060687982 0.14683744
44251150000 0.11551917 0.089055352 -0.90452254 -0.073230103 -0.89205027 -0.07500767 0.088686921 0.10641999
44501100000 0.10673343 0.05917855 -0.89165127 0.16198577 -0.90330493 0.15625145 0.093409181 0.060740471
44751050000 0.090242714 0.034381948 -0.82264841 0.38516316 -0.81055385 0.40512547 0.078393303 0.025340404
45001000000 0.067004889 0.021750521 -0.68772644 0.60458976 -0.686912 0.58116692 0.043992706 0.0071512428
